(1781012569.896662) vcan0 600#00000000
(1781012569.896694) vcan0 601#00000000
(1781012569.896713) vcan0 602#7F000000
(1781012569.944660) vcan0 603#00
(1781012569.944692) vcan0 604#00
(1781012569.944712) vcan0 607#00000000
(1781012570.009702) vcan0 600#00000000
(1781012570.009752) vcan0 601#00000000
(1781012570.009771) vcan0 602#7F000000
(1781012570.121688) vcan0 600#00000000
(1781012570.121734) vcan0 601#00000000
(1781012570.121757) vcan0 602#7F000000
(1781012570.153661) vcan0 603#00
(1781012570.153692) vcan0 604#00
(1781012570.153711) vcan0 607#00000000
(1781012570.217709) vcan0 606#00
(1781012570.233667) vcan0 600#00000000
(1781012570.233697) vcan0 601#00000000
(1781012570.233715) vcan0 602#7F000000
(1781012570.345634) vcan0 600#00000000
(1781012570.345662) vcan0 601#00000000
(1781012570.345678) vcan0 602#7F000000
(1781012570.361638) vcan0 603#00
(1781012570.361669) vcan0 604#00
(1781012570.361689) vcan0 607#00000000
(1781012570.457632) vcan0 600#00000000
(1781012570.457662) vcan0 601#00000000
(1781012570.457686) vcan0 602#7F000000
(1781012570.569598) vcan0 600#00000000
(1781012570.569631) vcan0 601#00000000
(1781012570.569648) vcan0 602#7F000000
(1781012570.569663) vcan0 603#00
(1781012570.569675) vcan0 604#00
(1781012570.569689) vcan0 607#00000000
(1781012570.681649) vcan0 600#00000000
(1781012570.681682) vcan0 601#00000000
(1781012570.681701) vcan0 602#7F000000
(1781012570.728619) vcan0 606#00
(1781012570.776593) vcan0 603#00
(1781012570.776624) vcan0 604#00
(1781012570.776652) vcan0 607#00000000
(1781012570.792605) vcan0 600#00000000
(1781012570.792637) vcan0 601#00000000
(1781012570.792653) vcan0 602#7F000000
(1781012570.904630) vcan0 600#00000000
(1781012570.904660) vcan0 601#00000000
(1781012570.904678) vcan0 602#7F000000
(1781012570.985615) vcan0 603#00
(1781012570.985647) vcan0 604#00
(1781012570.985666) vcan0 607#00000000
(1781012571.004701) vcan0 600#00000000
(1781012571.004736) vcan0 601#00000000
(1781012571.004753) vcan0 602#7F000000
(1781012571.113588) vcan0 600#00000000
(1781012571.113620) vcan0 601#00000000
(1781012571.113636) vcan0 602#7F000000
(1781012571.193619) vcan0 603#00
(1781012571.193651) vcan0 604#00
(1781012571.193671) vcan0 607#00000000
(1781012571.225593) vcan0 600#00000000
(1781012571.225624) vcan0 601#00000000
(1781012571.225642) vcan0 602#7F000000
(1781012571.241615) vcan0 606#00
(1781012571.337566) vcan0 600#00000000
(1781012571.337598) vcan0 601#00000000
(1781012571.337616) vcan0 602#7F000000
(1781012571.401574) vcan0 603#00
(1781012571.401609) vcan0 604#00
(1781012571.401641) vcan0 607#00000000
(1781012571.449580) vcan0 600#00000000
(1781012571.449612) vcan0 601#00000000
(1781012571.449629) vcan0 602#7F000000
(1781012571.561549) vcan0 600#B2000000
(1781012571.561578) vcan0 601#00000000
(1781012571.561595) vcan0 602#7F000000
(1781012571.609538) vcan0 603#00
(1781012571.609568) vcan0 604#00
(1781012571.609584) vcan0 607#00000000
(1781012571.673561) vcan0 600#FF000000
(1781012571.673592) vcan0 601#00000000
(1781012571.673608) vcan0 602#7F000000
(1781012571.752524) vcan0 606#00
(1781012571.784536) vcan0 600#FF000000
(1781012571.784566) vcan0 601#00000000
(1781012571.784583) vcan0 602#8C000000
(1781012571.816511) vcan0 603#00
(1781012571.816542) vcan0 604#00
(1781012571.816561) vcan0 607#00000000
(1781012571.896579) vcan0 600#FF000000
(1781012571.896629) vcan0 601#00000000
(1781012571.896655) vcan0 602#8C000000
(1781012572.009522) vcan0 600#FF000000
(1781012572.009560) vcan0 601#00000000
(1781012572.009577) vcan0 602#99000000
(1781012572.025510) vcan0 603#00
(1781012572.025543) vcan0 604#00
(1781012572.025560) vcan0 607#00000000
(1781012572.121494) vcan0 600#FF000000
(1781012572.121526) vcan0 601#00000000
(1781012572.121542) vcan0 602#99000000
(1781012572.233479) vcan0 600#FF000000
(1781012572.233514) vcan0 601#00000000
(1781012572.233530) vcan0 602#A5000000
(1781012572.233545) vcan0 603#00
(1781012572.233558) vcan0 604#00
(1781012572.233572) vcan0 607#00000000
(1781012572.265492) vcan0 606#00
(1781012572.345514) vcan0 600#FF000000
(1781012572.345550) vcan0 601#00000000
(1781012572.345566) vcan0 602#A5000000
(1781012572.441501) vcan0 603#00
(1781012572.441534) vcan0 604#00
(1781012572.441554) vcan0 607#00000000
(1781012572.457475) vcan0 600#FF000000
(1781012572.457506) vcan0 601#00000000
(1781012572.457526) vcan0 602#B2000000
(1781012572.569476) vcan0 600#FF000000
(1781012572.569509) vcan0 601#00000000
(1781012572.569527) vcan0 602#7F000000
(1781012572.649483) vcan0 603#00
(1781012572.649521) vcan0 604#00
(1781012572.649538) vcan0 607#00000000
(1781012572.681469) vcan0 600#FF000000
(1781012572.681501) vcan0 601#00000000
(1781012572.681517) vcan0 602#7F000000
(1781012572.776464) vcan0 606#00
(1781012572.792425) vcan0 600#FF000000
(1781012572.792459) vcan0 601#00000000
(1781012572.792474) vcan0 602#7F000000
(1781012572.856532) vcan0 603#00
(1781012572.856568) vcan0 604#00
(1781012572.856586) vcan0 607#00000000
(1781012572.904455) vcan0 600#FF000000
(1781012572.904485) vcan0 601#00000000
(1781012572.904501) vcan0 602#7F000000
(1781012573.017508) vcan0 600#FF000000
(1781012573.017567) vcan0 601#00000000
(1781012573.017595) vcan0 602#7F000000
(1781012573.065405) vcan0 603#00
(1781012573.065437) vcan0 604#00
(1781012573.065457) vcan0 607#00000000
(1781012573.129450) vcan0 600#FF000000
(1781012573.129489) vcan0 601#00000000
(1781012573.129508) vcan0 602#7F000000
(1781012573.241394) vcan0 600#FF000000
(1781012573.241430) vcan0 601#00000000
(1781012573.241448) vcan0 602#7F000000
(1781012573.273501) vcan0 603#00
(1781012573.273549) vcan0 604#00
(1781012573.273582) vcan0 607#00000000
(1781012573.289445) vcan0 606#00
(1781012573.353410) vcan0 600#FF000000
(1781012573.353443) vcan0 601#00000000
(1781012573.353459) vcan0 602#7F000000
(1781012573.465380) vcan0 600#FF000000
(1781012573.465415) vcan0 601#00000000
(1781012573.465432) vcan0 602#7F000000
(1781012573.481403) vcan0 603#00
(1781012573.481437) vcan0 604#00
(1781012573.481457) vcan0 607#00000000
(1781012573.577407) vcan0 600#FF000000
(1781012573.577441) vcan0 601#00000000
(1781012573.577473) vcan0 602#7F000000
(1781012573.689411) vcan0 600#FF000000
(1781012573.689446) vcan0 601#00000000
(1781012573.689463) vcan0 602#7F000000
(1781012573.689479) vcan0 603#00
(1781012573.689492) vcan0 604#00
(1781012573.689506) vcan0 607#00000000
(1781012573.800436) vcan0 600#FF000000
(1781012573.800475) vcan0 601#00000000
(1781012573.800493) vcan0 602#7F000000
(1781012573.800514) vcan0 606#00
(1781012573.896466) vcan0 603#00
(1781012573.896529) vcan0 604#00
(1781012573.896548) vcan0 607#00000000
(1781012573.912384) vcan0 600#FF000000
(1781012573.912419) vcan0 601#00000000
(1781012573.912437) vcan0 602#7F000000
(1781012574.025372) vcan0 600#FF000000
(1781012574.025405) vcan0 601#00000000
(1781012574.025421) vcan0 602#7F000000
(1781012574.105380) vcan0 603#00
(1781012574.105411) vcan0 604#00
(1781012574.105430) vcan0 607#00000000
(1781012574.137351) vcan0 600#FF000000
(1781012574.137378) vcan0 601#00000000
(1781012574.137393) vcan0 602#7F000000
(1781012574.249336) vcan0 600#FF000000
(1781012574.249370) vcan0 601#00000000
(1781012574.249386) vcan0 602#7F000000
(1781012574.313327) vcan0 603#00
(1781012574.313363) vcan0 604#00
(1781012574.313382) vcan0 606#00
(1781012574.313399) vcan0 607#00000000
(1781012574.361339) vcan0 600#FF000000
(1781012574.361371) vcan0 601#00000000
(1781012574.361387) vcan0 602#8C000000
(1781012574.473325) vcan0 600#FF000000
(1781012574.473364) vcan0 601#00000000
(1781012574.473384) vcan0 602#8C000000
(1781012574.521334) vcan0 603#00
(1781012574.521364) vcan0 604#00
(1781012574.521382) vcan0 607#00000000
(1781012574.585317) vcan0 600#FF000000
(1781012574.585348) vcan0 601#00000000
(1781012574.585366) vcan0 602#99000000
(1781012574.697290) vcan0 600#FF000000
(1781012574.697320) vcan0 601#00000000
(1781012574.697336) vcan0 602#99000000
(1781012574.728482) vcan0 603#00
(1781012574.728521) vcan0 604#00
(1781012574.728552) vcan0 607#00000000
(1781012574.808300) vcan0 600#FF000000
(1781012574.808337) vcan0 601#00000000
(1781012574.808356) vcan0 602#A5000000
(1781012574.824271) vcan0 606#00
(1781012574.920304) vcan0 600#FF000000
(1781012574.920338) vcan0 601#00000000
(1781012574.920355) vcan0 602#B2000000
(1781012574.936318) vcan0 603#00
(1781012574.936350) vcan0 604#00
(1781012574.936370) vcan0 607#00000000
(1781012575.033297) vcan0 600#FF000000
(1781012575.033337) vcan0 601#00000000
(1781012575.033354) vcan0 602#7F000000
(1781012575.145273) vcan0 600#FF000000
(1781012575.145306) vcan0 601#00000000
(1781012575.145323) vcan0 602#8C000000
(1781012575.145337) vcan0 603#00
(1781012575.145350) vcan0 604#00
(1781012575.145362) vcan0 607#00000000
(1781012575.257337) vcan0 600#FF000000
(1781012575.257373) vcan0 601#00000000
(1781012575.257392) vcan0 602#99000000
(1781012575.337264) vcan0 606#00
(1781012575.353270) vcan0 603#00
(1781012575.353306) vcan0 604#00
(1781012575.353328) vcan0 607#00000000
(1781012575.369262) vcan0 600#FF000000
(1781012575.369297) vcan0 601#00000000
(1781012575.369315) vcan0 602#99000000
(1781012575.481275) vcan0 600#FF000000
(1781012575.481313) vcan0 601#00000000
(1781012575.481329) vcan0 602#A5000000
(1781012575.561331) vcan0 603#00
(1781012575.561415) vcan0 604#00
(1781012575.561436) vcan0 607#00000000
(1781012575.593285) vcan0 600#FF000000
(1781012575.593322) vcan0 601#00000000
(1781012575.593338) vcan0 602#A5000000
(1781012575.705226) vcan0 600#FF000000
(1781012575.705257) vcan0 601#00000000
(1781012575.705273) vcan0 602#B2000000
(1781012575.768288) vcan0 603#00
(1781012575.768333) vcan0 604#00
(1781012575.768352) vcan0 607#00000000
(1781012575.816256) vcan0 600#FF000000
(1781012575.816295) vcan0 601#00000000
(1781012575.816314) vcan0 602#B2000000
(1781012575.848237) vcan0 606#00
(1781012575.928241) vcan0 600#FF000000
(1781012575.928296) vcan0 601#00000000
(1781012575.928312) vcan0 602#BF000000
(1781012575.977220) vcan0 603#00
(1781012575.977253) vcan0 604#00
(1781012575.977273) vcan0 607#00000000
(1781012576.041251) vcan0 600#00000000
(1781012576.041288) vcan0 601#00000000
(1781012576.041306) vcan0 602#BF000000
(1781012576.153189) vcan0 600#00000000
(1781012576.153222) vcan0 601#00000000
(1781012576.153241) vcan0 602#CC000000
(1781012576.185209) vcan0 603#00
(1781012576.185238) vcan0 604#00
(1781012576.185255) vcan0 607#00000000
(1781012576.265222) vcan0 600#00000000
(1781012576.265253) vcan0 601#00000000
(1781012576.265270) vcan0 602#D8000000
(1781012576.361187) vcan0 606#00
(1781012576.377143) vcan0 600#66000000
(1781012576.377168) vcan0 601#00000000
(1781012576.377184) vcan0 602#D8000000
(1781012576.393170) vcan0 603#00
(1781012576.393195) vcan0 604#00
(1781012576.393213) vcan0 607#00000000
(1781012576.489160) vcan0 600#FF000000
(1781012576.489193) vcan0 601#00000000
(1781012576.489209) vcan0 602#D8000000
(1781012576.601249) vcan0 600#FF000000
(1781012576.601287) vcan0 601#00000000
(1781012576.601304) vcan0 602#D8000000
(1781012576.601319) vcan0 603#00
(1781012576.601332) vcan0 604#00
(1781012576.601345) vcan0 607#00000000
(1781012576.713266) vcan0 600#FF000000
(1781012576.713335) vcan0 601#00000000
(1781012576.713354) vcan0 602#D8000000
(1781012576.808130) vcan0 603#00
(1781012576.808164) vcan0 604#00
(1781012576.808181) vcan0 607#00000000
(1781012576.824158) vcan0 600#FF000000
(1781012576.824183) vcan0 601#00000000
(1781012576.824198) vcan0 602#7F000000
(1781012576.872145) vcan0 606#00
(1781012576.936155) vcan0 600#FF000000
(1781012576.936190) vcan0 601#00000000
(1781012576.936221) vcan0 602#7F000000
(1781012577.017205) vcan0 603#00
(1781012577.017254) vcan0 604#00
(1781012577.017288) vcan0 607#00000000
(1781012577.049136) vcan0 600#FF000000
(1781012577.049169) vcan0 601#00000000
(1781012577.049184) vcan0 602#8C000000
(1781012577.161096) vcan0 600#FF000000
(1781012577.161129) vcan0 601#00000000
(1781012577.161145) vcan0 602#8C000000
(1781012577.225165) vcan0 603#00
(1781012577.225196) vcan0 604#00
(1781012577.225213) vcan0 607#00000000
(1781012577.273095) vcan0 600#FF000000
(1781012577.273127) vcan0 601#00000000
(1781012577.273144) vcan0 602#7F000000
(1781012577.385111) vcan0 600#FF000000
(1781012577.385141) vcan0 601#00000000
(1781012577.385156) vcan0 602#7F000000
(1781012577.385173) vcan0 606#00
(1781012577.433114) vcan0 603#00
(1781012577.433143) vcan0 604#00
(1781012577.433168) vcan0 607#00000000
(1781012577.497125) vcan0 600#FF000000
(1781012577.497156) vcan0 601#00000000
(1781012577.497172) vcan0 602#7F000000
(1781012577.609097) vcan0 600#FF000000
(1781012577.609131) vcan0 601#00000000
(1781012577.609148) vcan0 602#8C000000
(1781012577.641096) vcan0 603#00
(1781012577.641125) vcan0 604#00
(1781012577.641142) vcan0 607#00000000
(1781012577.721082) vcan0 600#FF000000
(1781012577.721112) vcan0 601#00000000
(1781012577.721128) vcan0 602#8C000000
(1781012577.832086) vcan0 600#FF000000
(1781012577.832118) vcan0 601#00000000
(1781012577.832135) vcan0 602#99000000
(1781012577.848135) vcan0 603#00
(1781012577.848182) vcan0 604#00
(1781012577.848214) vcan0 607#00000000
(1781012577.896075) vcan0 606#00
(1781012577.944054) vcan0 600#FF000000
(1781012577.944082) vcan0 601#00000000
(1781012577.944098) vcan0 602#99000000
(1781012578.057153) vcan0 600#FF000000
(1781012578.057201) vcan0 601#00000000
(1781012578.057235) vcan0 602#A5000000
(1781012578.057265) vcan0 603#00
(1781012578.057321) vcan0 604#00
(1781012578.057381) vcan0 607#00000000
(1781012578.169065) vcan0 600#FF000000
(1781012578.169107) vcan0 601#00000000
(1781012578.169130) vcan0 602#7F000000
(1781012578.265107) vcan0 603#00
(1781012578.265158) vcan0 604#00
(1781012578.265193) vcan0 607#00000000
(1781012578.281075) vcan0 600#FF000000
(1781012578.281119) vcan0 601#00000000
(1781012578.281137) vcan0 602#7F000000
(1781012578.393014) vcan0 600#FF000000
(1781012578.393046) vcan0 601#00000000
(1781012578.393063) vcan0 602#7F000000
(1781012578.409044) vcan0 606#00
(1781012578.473029) vcan0 603#00
(1781012578.473057) vcan0 604#00
(1781012578.473075) vcan0 607#00000000
(1781012578.505017) vcan0 600#FF000000
(1781012578.505049) vcan0 601#00000000
(1781012578.505065) vcan0 602#7F000000
(1781012578.617011) vcan0 600#FF000000
(1781012578.617052) vcan0 601#00000000
(1781012578.617068) vcan0 602#8C000000
(1781012578.681057) vcan0 603#00
(1781012578.681118) vcan0 604#00
(1781012578.681147) vcan0 607#00000000
(1781012578.728073) vcan0 600#FF000000
(1781012578.728126) vcan0 601#00000000
(1781012578.728149) vcan0 602#8C000000
(1781012578.839985) vcan0 600#FF000000
(1781012578.840019) vcan0 601#00000000
(1781012578.840038) vcan0 602#99000000
(1781012578.887998) vcan0 603#00
(1781012578.888033) vcan0 604#00
(1781012578.888053) vcan0 607#00000000
(1781012578.920003) vcan0 606#00
(1781012578.951994) vcan0 600#FF000000
(1781012578.952023) vcan0 601#00000000
(1781012578.952039) vcan0 602#A5000000
(1781012579.064987) vcan0 600#FF000000
(1781012579.065016) vcan0 601#00000000
(1781012579.065034) vcan0 602#7F000000
(1781012579.097022) vcan0 603#00
(1781012579.097059) vcan0 604#00
(1781012579.097078) vcan0 607#00000000
(1781012579.176959) vcan0 600#FF000000
(1781012579.176991) vcan0 601#00000000
(1781012579.177009) vcan0 602#7F000000
(1781012579.288989) vcan0 600#FF000000
(1781012579.289026) vcan0 601#00000000
(1781012579.289046) vcan0 602#7F000000
(1781012579.304964) vcan0 603#00
(1781012579.304991) vcan0 604#00
(1781012579.305008) vcan0 607#00000000
(1781012579.400969) vcan0 600#FF000000
(1781012579.401022) vcan0 601#00000000
(1781012579.401038) vcan0 602#7F000000
(1781012579.432957) vcan0 606#00
(1781012579.512924) vcan0 600#FF000000
(1781012579.512975) vcan0 601#00000000
(1781012579.512991) vcan0 602#7F000000
(1781012579.513006) vcan0 603#00
(1781012579.513021) vcan0 604#00
(1781012579.513035) vcan0 607#00000000
(1781012579.624920) vcan0 600#FF000000
(1781012579.624954) vcan0 601#00000000
(1781012579.624972) vcan0 602#7F000000
(1781012579.720901) vcan0 603#00
(1781012579.720930) vcan0 604#00
(1781012579.720947) vcan0 607#00000000
(1781012579.735928) vcan0 600#FF000000
(1781012579.735960) vcan0 601#00000000
(1781012579.735978) vcan0 602#8C000000
(1781012579.847910) vcan0 600#FF000000
(1781012579.847938) vcan0 601#00000000
(1781012579.847954) vcan0 602#8C000000
(1781012579.927883) vcan0 603#00
(1781012579.927911) vcan0 604#00
(1781012579.927928) vcan0 607#00000000
(1781012579.943915) vcan0 606#00
(1781012579.960913) vcan0 600#FF000000
(1781012579.960962) vcan0 601#00000000
(1781012579.960987) vcan0 602#7F000000
(1781012580.072918) vcan0 600#FF000000
(1781012580.072951) vcan0 601#00000000
(1781012580.072969) vcan0 602#7F000000
(1781012580.136904) vcan0 603#00
(1781012580.136941) vcan0 604#00
(1781012580.136960) vcan0 607#00000000
(1781012580.184882) vcan0 600#FF000000
(1781012580.184914) vcan0 601#00000000
(1781012580.184933) vcan0 602#7F000000
(1781012580.296875) vcan0 600#FF000000
(1781012580.296908) vcan0 601#00000000
(1781012580.296933) vcan0 602#7F000000
(1781012580.344903) vcan0 603#00
(1781012580.344945) vcan0 604#00
(1781012580.344964) vcan0 607#00000000
(1781012580.408877) vcan0 600#FF000000
(1781012580.408908) vcan0 601#00000000
(1781012580.408925) vcan0 602#7F000000
(1781012580.456873) vcan0 606#00
(1781012580.520867) vcan0 600#FF000000
(1781012580.520903) vcan0 601#00000000
(1781012580.520920) vcan0 602#7F000000
(1781012580.552857) vcan0 603#00
(1781012580.552940) vcan0 604#00
(1781012580.552960) vcan0 607#00000000
(1781012580.632951) vcan0 600#FF000000
(1781012580.632987) vcan0 601#00000000
(1781012580.633058) vcan0 602#7F000000
(1781012580.743845) vcan0 600#FF000000
(1781012580.743876) vcan0 601#00000000
(1781012580.743892) vcan0 602#8C000000
(1781012580.759846) vcan0 603#00
(1781012580.759873) vcan0 604#00
(1781012580.759889) vcan0 607#00000000
(1781012580.855888) vcan0 600#FF000000
(1781012580.855922) vcan0 601#00000000
(1781012580.855943) vcan0 602#99000000
(1781012580.968896) vcan0 600#FF000000
(1781012580.968955) vcan0 601#00000000
(1781012580.969016) vcan0 602#99000000
(1781012580.969053) vcan0 603#00
(1781012580.969072) vcan0 604#00
(1781012580.969088) vcan0 606#00
(1781012580.969102) vcan0 607#00000000
(1781012581.080813) vcan0 600#FF000000
(1781012581.080846) vcan0 601#00000000
(1781012581.080862) vcan0 602#7F000000
(1781012581.176828) vcan0 603#00
(1781012581.176857) vcan0 604#00
(1781012581.176878) vcan0 607#00000000
(1781012581.192791) vcan0 600#FF000000
(1781012581.192819) vcan0 601#00000000
(1781012581.192833) vcan0 602#7F000000
(1781012581.304807) vcan0 600#FF000000
(1781012581.304840) vcan0 601#00000000
(1781012581.304857) vcan0 602#7F000000
(1781012581.384829) vcan0 603#00
(1781012581.384863) vcan0 604#00
(1781012581.384881) vcan0 607#00000000
(1781012581.416787) vcan0 600#FF000000
(1781012581.416818) vcan0 601#00000000
(1781012581.416834) vcan0 602#7F000000
(1781012581.480764) vcan0 606#00
(1781012581.528801) vcan0 600#FF000000
(1781012581.528834) vcan0 601#00000000
(1781012581.528850) vcan0 602#7F000000
(1781012581.592800) vcan0 603#00
(1781012581.592842) vcan0 604#00
(1781012581.592859) vcan0 607#00000000
(1781012581.640861) vcan0 600#FF000000
(1781012581.640911) vcan0 601#00000000
(1781012581.640943) vcan0 602#72000000
(1781012581.751786) vcan0 600#FF000000
(1781012581.751826) vcan0 601#00000000
(1781012581.751846) vcan0 602#72000000
(1781012581.799897) vcan0 603#00
(1781012581.799953) vcan0 604#00
(1781012581.799989) vcan0 607#00000000
(1781012581.863769) vcan0 600#FF000000
(1781012581.863804) vcan0 601#00000000
(1781012581.863824) vcan0 602#7F000000
(1781012581.976740) vcan0 600#FF000000
(1781012581.976775) vcan0 601#00000000
(1781012581.976792) vcan0 602#7F000000
(1781012581.992764) vcan0 606#00
(1781012582.008757) vcan0 603#00
(1781012582.008787) vcan0 604#00
(1781012582.008806) vcan0 607#00000000
(1781012582.088730) vcan0 600#FF000000
(1781012582.088762) vcan0 601#00000000
(1781012582.088780) vcan0 602#7F000000
(1781012582.200726) vcan0 600#FF000000
(1781012582.200809) vcan0 601#00000000
(1781012582.200839) vcan0 602#7F000000
(1781012582.216752) vcan0 603#00
(1781012582.216782) vcan0 604#00
(1781012582.216799) vcan0 607#00000000
(1781012582.312725) vcan0 600#FF000000
(1781012582.312763) vcan0 601#00000000
(1781012582.312783) vcan0 602#7F000000
(1781012582.424739) vcan0 600#FF000000
(1781012582.424773) vcan0 601#00000000
(1781012582.424788) vcan0 602#7F000000
(1781012582.424802) vcan0 603#00
(1781012582.424815) vcan0 604#00
(1781012582.424828) vcan0 607#00000000
(1781012582.504726) vcan0 606#00
(1781012582.536713) vcan0 600#FF000000
(1781012582.536748) vcan0 601#00000000
(1781012582.536767) vcan0 602#7F000000
(1781012582.632783) vcan0 603#00
(1781012582.632813) vcan0 604#00
(1781012582.632829) vcan0 607#00000000
(1781012582.648726) vcan0 600#FF000000
(1781012582.648761) vcan0 601#00000000
(1781012582.648778) vcan0 602#72000000
(1781012582.759673) vcan0 600#FF000000
(1781012582.759706) vcan0 601#00000000
(1781012582.759725) vcan0 602#72000000
(1781012582.839688) vcan0 603#00
(1781012582.839722) vcan0 604#00
(1781012582.839742) vcan0 607#00000000
(1781012582.871706) vcan0 600#FF000000
(1781012582.871742) vcan0 601#00000000
(1781012582.871762) vcan0 602#65000000
(1781012582.984675) vcan0 600#FF000000
(1781012582.984704) vcan0 601#00000000
(1781012582.984719) vcan0 602#7F000000
(1781012583.016695) vcan0 606#00
(1781012583.048677) vcan0 603#00
(1781012583.048705) vcan0 604#00
(1781012583.048721) vcan0 607#00000000
(1781012583.096673) vcan0 600#FF000000
(1781012583.096715) vcan0 601#00000000
(1781012583.096732) vcan0 602#7F000000
(1781012583.208676) vcan0 600#FF000000
(1781012583.208707) vcan0 601#00000000
(1781012583.208722) vcan0 602#8C000000
(1781012583.256666) vcan0 603#00
(1781012583.256709) vcan0 604#00
(1781012583.256727) vcan0 607#00000000
(1781012583.320662) vcan0 600#FF000000
(1781012583.320693) vcan0 601#00000000
(1781012583.320710) vcan0 602#8C000000
(1781012583.432639) vcan0 600#FF000000
(1781012583.432670) vcan0 601#00000000
(1781012583.432686) vcan0 602#99000000
(1781012583.464658) vcan0 603#00
(1781012583.464686) vcan0 604#00
(1781012583.464703) vcan0 607#00000000
(1781012583.528666) vcan0 606#00
(1781012583.544707) vcan0 600#FF000000
(1781012583.544744) vcan0 601#00000000
(1781012583.544763) vcan0 602#7F000000
(1781012583.656652) vcan0 600#FF000000
(1781012583.656684) vcan0 601#00000000
(1781012583.656702) vcan0 602#7F000000
(1781012583.672776) vcan0 603#00
(1781012583.672830) vcan0 604#00
(1781012583.672896) vcan0 607#00000000
(1781012583.767620) vcan0 600#FF000000
(1781012583.767654) vcan0 601#00000000
(1781012583.767673) vcan0 602#7F000000
(1781012583.879624) vcan0 600#FF000000
(1781012583.879659) vcan0 601#00000000
(1781012583.879677) vcan0 602#7F000000
(1781012583.879692) vcan0 603#00
(1781012583.879705) vcan0 604#00
(1781012583.879719) vcan0 607#00000000
(1781012583.992618) vcan0 600#FF000000
(1781012583.992658) vcan0 601#00000000
(1781012583.992675) vcan0 602#7F000000
(1781012584.040606) vcan0 606#00
(1781012584.088577) vcan0 603#00
(1781012584.088635) vcan0 604#00
(1781012584.088654) vcan0 607#00000000
(1781012584.104579) vcan0 600#FF000000
(1781012584.104611) vcan0 601#00000000
(1781012584.104626) vcan0 602#7F000000
(1781012584.216575) vcan0 600#FF000000
(1781012584.216606) vcan0 601#00000000
(1781012584.216623) vcan0 602#7F000000
(1781012584.296555) vcan0 603#00
(1781012584.296587) vcan0 604#00
(1781012584.296603) vcan0 607#00000000
(1781012584.328575) vcan0 600#FF000000
(1781012584.328609) vcan0 601#00000000
(1781012584.328625) vcan0 602#7F000000
(1781012584.440574) vcan0 600#FF000000
(1781012584.440613) vcan0 601#00000000
(1781012584.440634) vcan0 602#7F000000
(1781012584.504582) vcan0 603#00
(1781012584.504616) vcan0 604#00
(1781012584.504633) vcan0 607#00000000
(1781012584.552568) vcan0 600#FF000000
(1781012584.552625) vcan0 601#00000000
(1781012584.552641) vcan0 602#7F000000
(1781012584.552659) vcan0 606#00
(1781012584.664561) vcan0 600#FF000000
(1781012584.664592) vcan0 601#00000000
(1781012584.664608) vcan0 602#7F000000
(1781012584.712652) vcan0 603#00
(1781012584.712707) vcan0 604#00
(1781012584.712744) vcan0 607#00000000
(1781012584.775669) vcan0 600#FF000000
(1781012584.775722) vcan0 601#00000000
(1781012584.775756) vcan0 602#7F000000
(1781012584.887568) vcan0 600#FF000000
(1781012584.887601) vcan0 601#00000000
(1781012584.887617) vcan0 602#7F000000
(1781012584.919546) vcan0 603#00
(1781012584.919574) vcan0 604#00
(1781012584.919592) vcan0 607#00000000
(1781012585.000584) vcan0 600#FF000000
(1781012585.000622) vcan0 601#00000000
(1781012585.000644) vcan0 602#7F000000
(1781012585.064506) vcan0 606#00
(1781012585.112515) vcan0 600#FF000000
(1781012585.112552) vcan0 601#00000000
(1781012585.112569) vcan0 602#7F000000
(1781012585.128528) vcan0 603#00
(1781012585.128558) vcan0 604#00
(1781012585.128575) vcan0 607#00000000
(1781012585.224497) vcan0 600#FF000000
(1781012585.224527) vcan0 601#00000000
(1781012585.224543) vcan0 602#7F000000
(1781012585.336536) vcan0 600#FF000000
(1781012585.336570) vcan0 601#00000000
(1781012585.336586) vcan0 602#7F000000
(1781012585.336601) vcan0 603#00
(1781012585.336614) vcan0 604#00
(1781012585.336628) vcan0 607#00000000
(1781012585.448513) vcan0 600#FF000000
(1781012585.448545) vcan0 601#00000000
(1781012585.448562) vcan0 602#72000000
(1781012585.544506) vcan0 603#00
(1781012585.544535) vcan0 604#00
(1781012585.544552) vcan0 607#00000000
(1781012585.560488) vcan0 600#FF000000
(1781012585.560523) vcan0 601#00000000
(1781012585.560539) vcan0 602#72000000
(1781012585.576470) vcan0 606#00
(1781012585.672494) vcan0 600#FF000000
(1781012585.672526) vcan0 601#00000000
(1781012585.672543) vcan0 602#65000000
(1781012585.751462) vcan0 603#00
(1781012585.751495) vcan0 604#00
(1781012585.751511) vcan0 607#00000000
(1781012585.783475) vcan0 600#FF000000
(1781012585.783506) vcan0 601#00000000
(1781012585.783522) vcan0 602#65000000
(1781012585.895470) vcan0 600#FF000000
(1781012585.895513) vcan0 601#00000000
(1781012585.895530) vcan0 602#7F000000
(1781012585.960433) vcan0 603#00
(1781012585.960461) vcan0 604#00
(1781012585.960477) vcan0 607#00000000
(1781012586.008460) vcan0 600#FF000000
(1781012586.008496) vcan0 601#00000000
(1781012586.008512) vcan0 602#7F000000
(1781012586.088462) vcan0 606#00
(1781012586.120444) vcan0 600#FF000000
(1781012586.120476) vcan0 601#00000000
(1781012586.120492) vcan0 602#7F000000
(1781012586.168457) vcan0 603#00
(1781012586.168493) vcan0 604#00
(1781012586.168513) vcan0 607#00000000
(1781012586.232456) vcan0 600#FF000000
(1781012586.232490) vcan0 601#00000000
(1781012586.232507) vcan0 602#7F000000
(1781012586.344482) vcan0 600#FF000000
(1781012586.344516) vcan0 601#00000000
(1781012586.344534) vcan0 602#72000000
(1781012586.376486) vcan0 603#00
(1781012586.376533) vcan0 604#00
(1781012586.376567) vcan0 607#00000000
(1781012586.456425) vcan0 600#FF000000
(1781012586.456458) vcan0 601#00000000
(1781012586.456478) vcan0 602#65000000
(1781012586.568417) vcan0 600#FF000000
(1781012586.568447) vcan0 601#00000000
(1781012586.568464) vcan0 602#65000000
(1781012586.584393) vcan0 603#00
(1781012586.584418) vcan0 604#00
(1781012586.584432) vcan0 607#00000000
(1781012586.600401) vcan0 606#00
(1781012586.680411) vcan0 600#FF000000
(1781012586.680444) vcan0 601#00000000
(1781012586.680460) vcan0 602#59000000
(1781012586.791433) vcan0 600#FF000000
(1781012586.791475) vcan0 601#00000000
(1781012586.791495) vcan0 602#59000000
(1781012586.791511) vcan0 603#00
(1781012586.791525) vcan0 604#00
(1781012586.791540) vcan0 607#00000000
(1781012586.903402) vcan0 600#00000000
(1781012586.903437) vcan0 601#00000000
(1781012586.903458) vcan0 602#4C000000
(1781012587.000409) vcan0 603#00
(1781012587.000447) vcan0 604#00
(1781012587.000473) vcan0 607#00000000
(1781012587.016463) vcan0 600#00000000
(1781012587.016509) vcan0 601#00000000
(1781012587.016541) vcan0 602#4C000000
(1781012587.112418) vcan0 606#00
(1781012587.128391) vcan0 600#33000000
(1781012587.128424) vcan0 601#00000000
(1781012587.128441) vcan0 602#3F000000
(1781012587.208372) vcan0 603#00
(1781012587.208406) vcan0 604#00
(1781012587.208425) vcan0 607#00000000
(1781012587.240393) vcan0 600#E5000000
(1781012587.240426) vcan0 601#00000000
(1781012587.240443) vcan0 602#3F000000
(1781012587.352360) vcan0 600#FF000000
(1781012587.352396) vcan0 601#00000000
(1781012587.352414) vcan0 602#32000000
(1781012587.416346) vcan0 603#00
(1781012587.416378) vcan0 604#00
(1781012587.416395) vcan0 607#00000000
(1781012587.464331) vcan0 600#FF000000
(1781012587.464374) vcan0 601#00000000
(1781012587.464392) vcan0 602#26000000
(1781012587.576336) vcan0 600#FF000000
(1781012587.576365) vcan0 601#00000000
(1781012587.576382) vcan0 602#26000000
(1781012587.624378) vcan0 603#00
(1781012587.624409) vcan0 604#00
(1781012587.624426) vcan0 606#00
(1781012587.624441) vcan0 607#00000000
(1781012587.688325) vcan0 600#FF000000
(1781012587.688361) vcan0 601#00000000
(1781012587.688377) vcan0 602#7F000000
(1781012587.799312) vcan0 600#FF000000
(1781012587.799346) vcan0 601#00000000
(1781012587.799365) vcan0 602#7F000000
(1781012587.831314) vcan0 603#00
(1781012587.831342) vcan0 604#00
(1781012587.831357) vcan0 607#00000000
(1781012587.911391) vcan0 600#FF000000
(1781012587.911441) vcan0 601#00000000
(1781012587.911475) vcan0 602#8C000000
(1781012588.024306) vcan0 600#FF000000
(1781012588.024337) vcan0 601#00000000
(1781012588.024353) vcan0 602#8C000000
(1781012588.040371) vcan0 603#00
(1781012588.040418) vcan0 604#00
(1781012588.040451) vcan0 607#00000000
(1781012588.136346) vcan0 600#FF000000
(1781012588.136382) vcan0 601#00000000
(1781012588.136398) vcan0 602#99000000
(1781012588.136415) vcan0 606#00
(1781012588.248300) vcan0 600#FF000000
(1781012588.248341) vcan0 601#00000000
(1781012588.248361) vcan0 602#99000000
(1781012588.248381) vcan0 603#00
(1781012588.248399) vcan0 604#00
(1781012588.248418) vcan0 607#00000000
(1781012588.360369) vcan0 600#FF000000
(1781012588.360415) vcan0 601#00000000
(1781012588.360448) vcan0 602#7F000000
(1781012588.456281) vcan0 603#00
(1781012588.456315) vcan0 604#00
(1781012588.456337) vcan0 607#00000000
(1781012588.472281) vcan0 600#FF000000
(1781012588.472312) vcan0 601#00000000
(1781012588.472333) vcan0 602#72000000
(1781012588.584248) vcan0 600#FF000000
(1781012588.584283) vcan0 601#00000000
(1781012588.584302) vcan0 602#72000000
(1781012588.648266) vcan0 606#00
(1781012588.664288) vcan0 603#00
(1781012588.664318) vcan0 604#00
(1781012588.664335) vcan0 607#00000000
(1781012588.696256) vcan0 600#FF000000
(1781012588.696283) vcan0 601#00000000
(1781012588.696299) vcan0 602#65000000
(1781012588.807241) vcan0 600#FF000000
(1781012588.807283) vcan0 601#00000000
(1781012588.807300) vcan0 602#65000000
(1781012588.871299) vcan0 603#00
(1781012588.871350) vcan0 604#00
(1781012588.871370) vcan0 607#00000000
(1781012588.919285) vcan0 600#FF000000
(1781012588.919322) vcan0 601#00000000
(1781012588.919340) vcan0 602#59000000
(1781012589.032256) vcan0 600#FF000000
(1781012589.032295) vcan0 601#00000000
(1781012589.032312) vcan0 602#7F000000
(1781012589.080237) vcan0 603#00
(1781012589.080267) vcan0 604#00
(1781012589.080287) vcan0 607#00000000
(1781012589.144226) vcan0 600#FF000000
(1781012589.144262) vcan0 601#00000000
(1781012589.144282) vcan0 602#7F000000
(1781012589.160189) vcan0 606#00
(1781012589.256229) vcan0 600#FF000000
(1781012589.256260) vcan0 601#00000000
(1781012589.256280) vcan0 602#72000000
(1781012589.288203) vcan0 603#00
(1781012589.288233) vcan0 604#00
(1781012589.288251) vcan0 607#00000000
(1781012589.368216) vcan0 600#FF000000
(1781012589.368246) vcan0 601#00000000
(1781012589.368261) vcan0 602#7F000000
(1781012589.480252) vcan0 600#FF000000
(1781012589.480288) vcan0 601#00000000
(1781012589.480306) vcan0 602#7F000000
(1781012589.496203) vcan0 603#00
(1781012589.496234) vcan0 604#00
(1781012589.496253) vcan0 607#00000000
(1781012589.592261) vcan0 600#FF000000
(1781012589.592297) vcan0 601#00000000
(1781012589.592318) vcan0 602#7F000000
(1781012589.672302) vcan0 606#00
(1781012589.704221) vcan0 600#FF000000
(1781012589.704255) vcan0 601#00000000
(1781012589.704273) vcan0 602#7F000000
(1781012589.704289) vcan0 603#00
(1781012589.704302) vcan0 604#00
(1781012589.704319) vcan0 607#00000000
(1781012589.815175) vcan0 600#FF000000
(1781012589.815208) vcan0 601#00000000
(1781012589.815236) vcan0 602#7F000000
(1781012589.911179) vcan0 603#00
(1781012589.911211) vcan0 604#00
(1781012589.911227) vcan0 607#00000000
(1781012589.927179) vcan0 600#FF000000
(1781012589.927205) vcan0 601#00000000
(1781012589.927220) vcan0 602#7F000000
(1781012590.040147) vcan0 600#00000000
(1781012590.040180) vcan0 601#00000000
(1781012590.040197) vcan0 602#7F000000
(1781012590.120153) vcan0 603#00
(1781012590.120185) vcan0 604#01
(1781012590.120202) vcan0 607#00000000
(1781012590.152147) vcan0 600#00000000
(1781012590.152179) vcan0 601#00000000
(1781012590.152198) vcan0 602#7F000000
(1781012590.184121) vcan0 606#00
(1781012590.264144) vcan0 600#00000000
(1781012590.264174) vcan0 601#00000000
(1781012590.264190) vcan0 602#7F000000
(1781012590.328132) vcan0 603#00
(1781012590.328180) vcan0 604#01
(1781012590.328203) vcan0 607#00000000
(1781012590.376259) vcan0 600#00000000
(1781012590.376295) vcan0 601#00000000
(1781012590.376312) vcan0 602#7F000000
(1781012590.488099) vcan0 600#00000000
(1781012590.488131) vcan0 601#00000000
(1781012590.488148) vcan0 602#7F000000
(1781012590.536110) vcan0 603#00
(1781012590.536140) vcan0 604#01
(1781012590.536155) vcan0 607#00000000
(1781012590.600194) vcan0 600#00000000
(1781012590.600240) vcan0 601#00000000
(1781012590.600272) vcan0 602#7F000000
(1781012590.696115) vcan0 606#00
(1781012590.712125) vcan0 600#00000000
(1781012590.712157) vcan0 601#00000000
(1781012590.712174) vcan0 602#72000000
(1781012590.743136) vcan0 603#00
(1781012590.743167) vcan0 604#01
(1781012590.743184) vcan0 607#00000000
(1781012590.823075) vcan0 600#00000000
(1781012590.823105) vcan0 601#00000000
(1781012590.823122) vcan0 602#7F000000
(1781012590.935136) vcan0 600#00000000
(1781012590.935168) vcan0 601#00000000
(1781012590.935185) vcan0 602#7F000000
(1781012590.951076) vcan0 603#00
(1781012590.951105) vcan0 604#01
(1781012590.951123) vcan0 607#00000000
(1781012591.032104) vcan0 60D#08000000
(1781012591.048183) vcan0 600#00000000
(1781012591.048246) vcan0 601#66000000
(1781012591.048283) vcan0 602#7F000000
(1781012591.160144) vcan0 600#00000000
(1781012591.160184) vcan0 601#FF000000
(1781012591.160203) vcan0 602#7F000000
(1781012591.160220) vcan0 603#00
(1781012591.160233) vcan0 604#01
(1781012591.160248) vcan0 607#00000000
(1781012591.208069) vcan0 606#00
(1781012591.272077) vcan0 600#00000000
(1781012591.272108) vcan0 601#FF000000
(1781012591.272123) vcan0 602#7F000000
(1781012591.368034) vcan0 603#00
(1781012591.368064) vcan0 604#01
(1781012591.368080) vcan0 607#00000000
(1781012591.384104) vcan0 600#00000000
(1781012591.384142) vcan0 601#FF000000
(1781012591.384160) vcan0 602#7F000000
(1781012591.496048) vcan0 600#00000000
(1781012591.496104) vcan0 601#FF000000
(1781012591.496122) vcan0 602#7F000000
(1781012591.576038) vcan0 603#00
(1781012591.576073) vcan0 604#01
(1781012591.576092) vcan0 607#00000000
(1781012591.608081) vcan0 600#00000000
(1781012591.608138) vcan0 601#FF000000
(1781012591.608170) vcan0 602#7F000000
(1781012591.720081) vcan0 600#00000000
(1781012591.720113) vcan0 601#FF000000
(1781012591.720133) vcan0 602#7F000000
(1781012591.720157) vcan0 606#00
(1781012591.783078) vcan0 603#00
(1781012591.783111) vcan0 604#01
(1781012591.783127) vcan0 607#00000000
(1781012591.831019) vcan0 600#00000000
(1781012591.831064) vcan0 601#FF000000
(1781012591.831080) vcan0 602#7F000000
(1781012591.943034) vcan0 600#00000000
(1781012591.943064) vcan0 601#FF000000
(1781012591.943080) vcan0 602#7F000000
(1781012591.991982) vcan0 603#00
(1781012591.992016) vcan0 604#01
(1781012591.992033) vcan0 607#00000000
(1781012592.056033) vcan0 600#00000000
(1781012592.056065) vcan0 601#FF000000
(1781012592.056080) vcan0 602#7F000000
(1781012592.103991) vcan0 60D#00000000
(1781012592.167982) vcan0 600#00000000
(1781012592.168012) vcan0 601#00000000
(1781012592.168030) vcan0 602#7F000000
(1781012592.199989) vcan0 603#00
(1781012592.200018) vcan0 604#01
(1781012592.200035) vcan0 607#00000000
(1781012592.232020) vcan0 606#00
(1781012592.279988) vcan0 600#00000000
(1781012592.280021) vcan0 601#00000000
(1781012592.280039) vcan0 602#7F000000
(1781012592.391984) vcan0 600#00000000
(1781012592.392018) vcan0 601#00000000
(1781012592.392038) vcan0 602#7F000000
(1781012592.408056) vcan0 603#00
(1781012592.408135) vcan0 604#01
(1781012592.408174) vcan0 607#00000000
(1781012592.503984) vcan0 600#00000000
(1781012592.504021) vcan0 601#00000000
(1781012592.504041) vcan0 602#7F000000
(1781012592.615946) vcan0 600#00000000
(1781012592.615982) vcan0 601#00000000
(1781012592.616022) vcan0 602#7F000000
(1781012592.616041) vcan0 603#00
(1781012592.616054) vcan0 604#01
(1781012592.616067) vcan0 607#00000000
(1781012592.726965) vcan0 600#00000000
(1781012592.727008) vcan0 601#00000000
(1781012592.727025) vcan0 602#7F000000
(1781012592.742947) vcan0 606#00
(1781012592.822993) vcan0 603#00
(1781012592.823030) vcan0 604#01
(1781012592.823051) vcan0 607#00000000
(1781012592.838976) vcan0 600#00000000
(1781012592.839007) vcan0 601#00000000
(1781012592.839025) vcan0 602#7F000000
(1781012592.951017) vcan0 600#00000000
(1781012592.951060) vcan0 601#00000000
(1781012592.951110) vcan0 602#7F000000
(1781012593.031930) vcan0 603#00
(1781012593.031959) vcan0 604#00
(1781012593.031975) vcan0 607#00000000
(1781012593.063974) vcan0 600#B2000000
(1781012593.064009) vcan0 601#00000000
(1781012593.064026) vcan0 602#7F000000
(1781012593.175962) vcan0 600#FF000000
(1781012593.176009) vcan0 601#00000000
(1781012593.176028) vcan0 602#72000000
(1781012593.239916) vcan0 603#00
(1781012593.239946) vcan0 604#00
(1781012593.239965) vcan0 607#00000000
(1781012593.255913) vcan0 606#00
(1781012593.287908) vcan0 600#FF000000
(1781012593.287942) vcan0 601#00000000
(1781012593.287958) vcan0 602#72000000
(1781012593.399909) vcan0 600#FF000000
(1781012593.399941) vcan0 601#00000000
(1781012593.399957) vcan0 602#65000000
(1781012593.447908) vcan0 603#00
(1781012593.448007) vcan0 604#00
(1781012593.448049) vcan0 607#00000000
(1781012593.511882) vcan0 600#FF000000
(1781012593.511912) vcan0 601#00000000
(1781012593.511928) vcan0 602#65000000
(1781012593.623919) vcan0 600#FF000000
(1781012593.623955) vcan0 601#00000000
(1781012593.623978) vcan0 602#59000000
(1781012593.655944) vcan0 603#00
(1781012593.655982) vcan0 604#00
(1781012593.656004) vcan0 607#00000000
(1781012593.734941) vcan0 600#FF000000
(1781012593.734978) vcan0 601#00000000
(1781012593.734997) vcan0 602#4C000000
(1781012593.766990) vcan0 606#00
(1781012593.846907) vcan0 600#FF000000
(1781012593.846941) vcan0 601#00000000
(1781012593.846959) vcan0 602#4C000000
(1781012593.862893) vcan0 603#00
(1781012593.862932) vcan0 604#00
(1781012593.862951) vcan0 607#00000000
(1781012593.959902) vcan0 600#FF000000
(1781012593.959937) vcan0 601#00000000
(1781012593.959957) vcan0 602#3F000000
(1781012594.071937) vcan0 600#FF000000
(1781012594.071966) vcan0 601#00000000
(1781012594.071982) vcan0 602#3F000000
(1781012594.071996) vcan0 603#00
(1781012594.072008) vcan0 604#00
(1781012594.072021) vcan0 607#00000000
(1781012594.183852) vcan0 600#FF000000
(1781012594.183883) vcan0 601#00000000
(1781012594.183899) vcan0 602#32000000
(1781012594.279997) vcan0 603#00
(1781012594.280045) vcan0 604#00
(1781012594.280080) vcan0 606#00
(1781012594.280113) vcan0 607#00000000
(1781012594.295892) vcan0 600#FF000000
(1781012594.295931) vcan0 601#00000000
(1781012594.295957) vcan0 602#32000000
(1781012594.407863) vcan0 600#FF000000
(1781012594.407897) vcan0 601#00000000
(1781012594.407916) vcan0 602#26000000
(1781012594.487840) vcan0 603#00
(1781012594.487871) vcan0 604#00
(1781012594.487888) vcan0 607#00000000
(1781012594.519824) vcan0 600#FF000000
(1781012594.519857) vcan0 601#00000000
(1781012594.519877) vcan0 602#26000000
(1781012594.631937) vcan0 600#FF000000
(1781012594.632012) vcan0 601#00000000
(1781012594.632030) vcan0 602#26000000
(1781012594.695847) vcan0 603#00
(1781012594.695883) vcan0 604#00
(1781012594.695905) vcan0 607#00000000
(1781012594.742823) vcan0 600#FF000000
(1781012594.742854) vcan0 601#00000000
(1781012594.742880) vcan0 602#26000000
(1781012594.790844) vcan0 606#00
(1781012594.854777) vcan0 600#FF000000
(1781012594.854818) vcan0 601#00000000
(1781012594.854834) vcan0 602#26000000
(1781012594.902873) vcan0 603#00
(1781012594.902912) vcan0 604#00
(1781012594.902931) vcan0 607#00000000
(1781012594.967802) vcan0 600#FF000000
(1781012594.967833) vcan0 601#00000000
(1781012594.967850) vcan0 602#26000000
(1781012595.079847) vcan0 600#FF000000
(1781012595.079890) vcan0 601#00000000
(1781012595.079908) vcan0 602#26000000
(1781012595.111768) vcan0 603#00
(1781012595.111799) vcan0 604#00
(1781012595.111818) vcan0 607#00000000
(1781012595.191786) vcan0 600#FF000000
(1781012595.191816) vcan0 601#00000000
(1781012595.191832) vcan0 602#26000000
(1781012595.303779) vcan0 600#FF000000
(1781012595.303817) vcan0 601#00000000
(1781012595.303836) vcan0 602#26000000
(1781012595.303855) vcan0 606#00
(1781012595.319762) vcan0 603#00
(1781012595.319793) vcan0 604#00
(1781012595.319812) vcan0 607#00000000
(1781012595.415802) vcan0 600#FF000000
(1781012595.415841) vcan0 601#00000000
(1781012595.415860) vcan0 602#26000000
(1781012595.527752) vcan0 600#FF000000
(1781012595.527783) vcan0 601#00000000
(1781012595.527799) vcan0 602#26000000
(1781012595.527815) vcan0 603#00
(1781012595.527828) vcan0 604#00
(1781012595.527845) vcan0 607#00000000
(1781012595.639772) vcan0 600#FF000000
(1781012595.639808) vcan0 601#00000000
(1781012595.639826) vcan0 602#7F000000
(1781012595.734712) vcan0 603#00
(1781012595.734744) vcan0 604#00
(1781012595.734763) vcan0 607#00000000
(1781012595.750721) vcan0 600#FF000000
(1781012595.750749) vcan0 601#00000000
(1781012595.750766) vcan0 602#7F000000
(1781012595.814693) vcan0 606#00
(1781012595.862816) vcan0 600#FF000000
(1781012595.862875) vcan0 601#00000000
(1781012595.862898) vcan0 602#7F000000
(1781012595.942714) vcan0 603#00
(1781012595.942751) vcan0 604#00
(1781012595.942770) vcan0 607#00000000
(1781012595.975710) vcan0 600#FF000000
(1781012595.975745) vcan0 601#00000000
(1781012595.975765) vcan0 602#7F000000
(1781012596.087713) vcan0 600#FF000000
(1781012596.087755) vcan0 601#00000000
(1781012596.087772) vcan0 602#8C000000
(1781012596.151694) vcan0 603#00
(1781012596.151725) vcan0 604#00
(1781012596.151742) vcan0 607#00000000
(1781012596.199673) vcan0 600#FF000000
(1781012596.199706) vcan0 601#00000000
(1781012596.199724) vcan0 602#8C000000
(1781012596.311680) vcan0 600#FF000000
(1781012596.311730) vcan0 601#00000000
(1781012596.311753) vcan0 602#7F000000
(1781012596.327777) vcan0 606#00
(1781012596.359703) vcan0 603#00
(1781012596.359737) vcan0 604#00
(1781012596.359757) vcan0 607#00000000
(1781012596.423686) vcan0 600#FF000000
(1781012596.423719) vcan0 601#00000000
(1781012596.423736) vcan0 602#7F000000
(1781012596.535687) vcan0 600#FF000000
(1781012596.535735) vcan0 601#00000000
(1781012596.535756) vcan0 602#7F000000
(1781012596.567655) vcan0 603#00
(1781012596.567683) vcan0 604#00
(1781012596.567700) vcan0 607#00000000
(1781012596.647659) vcan0 600#FF000000
(1781012596.647688) vcan0 601#00000000
(1781012596.647705) vcan0 602#7F000000
(1781012596.758693) vcan0 600#FF000000
(1781012596.758736) vcan0 601#00000000
(1781012596.758773) vcan0 602#7F000000
(1781012596.774674) vcan0 603#00
(1781012596.774709) vcan0 604#00
(1781012596.774938) vcan0 607#00000000
(1781012596.838638) vcan0 606#00
(1781012596.870650) vcan0 600#FF000000
(1781012596.870682) vcan0 601#00000000
(1781012596.870699) vcan0 602#7F000000
(1781012596.983627) vcan0 600#FF000000
(1781012596.983661) vcan0 601#00000000
(1781012596.983677) vcan0 602#7F000000
(1781012596.983691) vcan0 603#00
(1781012596.983704) vcan0 604#00
(1781012596.983717) vcan0 607#00000000
(1781012597.095660) vcan0 600#FF000000
(1781012597.095693) vcan0 601#00000000
(1781012597.095710) vcan0 602#7F000000
(1781012597.191611) vcan0 603#00
(1781012597.191640) vcan0 604#00
(1781012597.191656) vcan0 607#00000000
(1781012597.207618) vcan0 600#FF000000
(1781012597.207647) vcan0 601#00000000
(1781012597.207662) vcan0 602#7F000000
(1781012597.319595) vcan0 600#FF000000
(1781012597.319626) vcan0 601#00000000
(1781012597.319642) vcan0 602#7F000000
(1781012597.351592) vcan0 606#00
(1781012597.399605) vcan0 603#00
(1781012597.399637) vcan0 604#00
(1781012597.399655) vcan0 607#00000000
(1781012597.431600) vcan0 600#FF000000
(1781012597.431631) vcan0 601#00000000
(1781012597.431647) vcan0 602#7F000000
(1781012597.543590) vcan0 600#FF000000
(1781012597.543621) vcan0 601#00000000
(1781012597.543638) vcan0 602#7F000000
(1781012597.607589) vcan0 603#00
(1781012597.607618) vcan0 604#00
(1781012597.607634) vcan0 607#00000000
(1781012597.655592) vcan0 600#FF000000
(1781012597.655634) vcan0 601#00000000
(1781012597.655657) vcan0 602#7F000000
(1781012597.766637) vcan0 600#FF000000
(1781012597.766678) vcan0 601#00000000
(1781012597.766696) vcan0 602#7F000000
(1781012597.814625) vcan0 603#00
(1781012597.814670) vcan0 604#00
(1781012597.814703) vcan0 607#00000000
(1781012597.862575) vcan0 606#00
(1781012597.878579) vcan0 600#FF000000
(1781012597.878612) vcan0 601#00000000
(1781012597.878629) vcan0 602#7F000000
(1781012597.991577) vcan0 600#FF000000
(1781012597.991616) vcan0 601#00000000
(1781012597.991633) vcan0 602#7F000000
(1781012598.023547) vcan0 603#00
(1781012598.023587) vcan0 604#00
(1781012598.023606) vcan0 607#00000000
(1781012598.103553) vcan0 600#FF000000
(1781012598.103588) vcan0 601#00000000
(1781012598.103607) vcan0 602#7F000000
(1781012598.215558) vcan0 600#00000000
(1781012598.215597) vcan0 601#00000000
(1781012598.215615) vcan0 602#7F000000
(1781012598.231525) vcan0 603#00
(1781012598.231559) vcan0 604#01
(1781012598.231578) vcan0 607#00000000
(1781012598.327555) vcan0 600#00000000
(1781012598.327604) vcan0 601#00000000
(1781012598.327634) vcan0 602#7F000000
(1781012598.375538) vcan0 606#00
(1781012598.439522) vcan0 600#00000000
(1781012598.439557) vcan0 601#00000000
(1781012598.439573) vcan0 602#7F000000
(1781012598.439588) vcan0 603#00
(1781012598.439601) vcan0 604#01
(1781012598.439615) vcan0 607#00000000
(1781012598.551511) vcan0 600#00000000
(1781012598.551542) vcan0 601#00000000
(1781012598.551594) vcan0 602#7F000000
(1781012598.647496) vcan0 603#00
(1781012598.647534) vcan0 604#01
(1781012598.647554) vcan0 607#00000000
(1781012598.663468) vcan0 600#00000000
(1781012598.663492) vcan0 601#00000000
(1781012598.663506) vcan0 602#7F000000
(1781012598.774556) vcan0 600#00000000
(1781012598.774592) vcan0 601#00000000
(1781012598.774614) vcan0 602#7F000000
(1781012598.854488) vcan0 603#00
(1781012598.854524) vcan0 604#01
(1781012598.854544) vcan0 607#00000000
(1781012598.886507) vcan0 600#00000000
(1781012598.886553) vcan0 601#00000000
(1781012598.886573) vcan0 602#7F000000
(1781012598.886591) vcan0 606#00
(1781012598.999491) vcan0 600#00000000
(1781012598.999527) vcan0 601#00000000
(1781012598.999547) vcan0 602#7F000000
(1781012599.063501) vcan0 603#00
(1781012599.063533) vcan0 604#01
(1781012599.063553) vcan0 607#00000000
(1781012599.079491) vcan0 60D#08000000
(1781012599.111588) vcan0 600#00000000
(1781012599.111634) vcan0 601#99000000
(1781012599.111652) vcan0 602#7F000000
(1781012599.223467) vcan0 600#00000000
(1781012599.223498) vcan0 601#FF000000
(1781012599.223515) vcan0 602#7F000000
(1781012599.271460) vcan0 603#00
(1781012599.271489) vcan0 604#01
(1781012599.271505) vcan0 607#00000000
(1781012599.335443) vcan0 600#00000000
(1781012599.335554) vcan0 601#FF000000
(1781012599.335572) vcan0 602#7F000000
(1781012599.399453) vcan0 606#00
(1781012599.447433) vcan0 600#00000000
(1781012599.447470) vcan0 601#FF000000
(1781012599.447488) vcan0 602#7F000000
(1781012599.479504) vcan0 603#00
(1781012599.479556) vcan0 604#01
(1781012599.479580) vcan0 607#00000000
(1781012599.559441) vcan0 600#00000000
(1781012599.559472) vcan0 601#FF000000
(1781012599.559490) vcan0 602#7F000000
(1781012599.623459) vcan0 60D#00000000
(1781012599.671505) vcan0 600#00000000
(1781012599.671540) vcan0 601#00000000
(1781012599.671559) vcan0 602#7F000000
(1781012599.687445) vcan0 603#00
(1781012599.687475) vcan0 604#01
(1781012599.687492) vcan0 607#00000000
(1781012599.782420) vcan0 600#00000000
(1781012599.782452) vcan0 601#00000000
(1781012599.782469) vcan0 602#7F000000
(1781012599.894445) vcan0 600#00000000
(1781012599.894475) vcan0 601#00000000
(1781012599.894493) vcan0 602#7F000000
(1781012599.894508) vcan0 603#00
(1781012599.894522) vcan0 604#01
(1781012599.894536) vcan0 607#00000000
(1781012599.910417) vcan0 606#00
(1781012600.007402) vcan0 600#00000000
(1781012600.007433) vcan0 601#00000000
(1781012600.007449) vcan0 602#7F000000
(1781012600.103399) vcan0 603#00
(1781012600.103430) vcan0 604#01
(1781012600.103446) vcan0 607#00000000
(1781012600.119388) vcan0 600#00000000
(1781012600.119415) vcan0 601#00000000
(1781012600.119429) vcan0 602#7F000000
(1781012600.231408) vcan0 600#33000000
(1781012600.231450) vcan0 601#00000000
(1781012600.231470) vcan0 602#7F000000
(1781012600.311393) vcan0 603#00
(1781012600.311426) vcan0 604#00
(1781012600.311447) vcan0 607#00000000
(1781012600.343358) vcan0 600#E5000000
(1781012600.343392) vcan0 601#00000000
(1781012600.343411) vcan0 602#7F000000
(1781012600.423402) vcan0 606#00
(1781012600.455404) vcan0 600#FF000000
(1781012600.455437) vcan0 601#00000000
(1781012600.455454) vcan0 602#7F000000
(1781012600.519368) vcan0 603#00
(1781012600.519401) vcan0 604#00
(1781012600.519418) vcan0 607#00000000
(1781012600.567376) vcan0 600#FF000000
(1781012600.567410) vcan0 601#00000000
(1781012600.567427) vcan0 602#7F000000
(1781012600.679389) vcan0 600#FF000000
(1781012600.679423) vcan0 601#00000000
(1781012600.679440) vcan0 602#7F000000
